
T1D1C 000:614 SEGGER J-Link V4.15n (beta) Log File (0001ms, 0613ms total)
T1D1C 000:614 DLL Compiled: Jun 18 2010 19:55:09 (0001ms, 0613ms total)
T1D1C 000:614 Logging started @ 2014-04-03 18:13 (0001ms, 0613ms total)
T1D1C 000:615 JLINK_SetWarnOutHandler(...) (0000ms, 0614ms total)
T1D1C 000:615 JLINK_OpenEx(...)
Firmware: J-Link ARM V8 compiled Jan 31 2018 18:34:52
Hardware: V8.00
S/N: 20080643
Feature(s): RDI,FlashDL,FlashBP,JFlash,GDBFull  returns O.K. (0086ms, 0614ms total)
T1D1C 000:701 JLINK_SetErrorOutHandler(...) (0000ms, 0700ms total)
T1D1C 000:701 JLINK_ExecCommand("ProjectFile = "E:\code\SmartLock_V4\smartlock2\bsp\stm32f10x\JLinkSettings.ini"", ...)  returns 0x00 (0000ms, 0700ms total)
T1D1C 000:705 JLINK_ExecCommand("DisableConnectionTimeout", ...)  returns 0x00 (0000ms, 0700ms total)
T1D1C 000:705 JLINK_TIF_Select(JLINKARM_TIF_SWD)  returns 0x00 (0001ms, 0700ms total)
T1D1C 000:706 JLINK_SetSpeed(2000) (0002ms, 0701ms total)
T1D1C 000:708 JLINK_GetHardwareVersion()  returns 0x13880 (0000ms, 0703ms total)
T1D1C 000:708 JLINK_GetDLLVersion()  returns 41514 (0000ms, 0703ms total)
T1D1C 000:708 JLINK_GetFirmwareString(...) (0000ms, 0703ms total)
T1D1C 000:713 JLINK_GetDLLVersion()  returns 41514 (0000ms, 0703ms total)
T1D1C 000:714 JLINK_GetCompileDateTime() (0000ms, 0703ms total)
T1D1C 000:719 JLINK_GetFirmwareString(...) (0000ms, 0703ms total)
T1D1C 000:721 JLINK_GetHardwareVersion()  returns 0x13880 (0000ms, 0703ms total)
T1D1C 000:726 JLINK_Reset() >0x108 TIF>Found SWD-DP with ID 0x1BA01477 >0x33 TIF> >0x33 TIF> >0x35 TIF> >0x33 TIF> >0x35 TIF> >0x33 TIF> >0x33 TIF> >0x9B TIF> >0x9B TIF> >0x1D7 TIF> >0x13A TIF> >0x13A TIF>TPIU fitted. >0x13A TIF>ETM fitted. >0x13A TIF>  FPUnit: 6 code (BP) slots and 2 literal slots >0x13A TIF> >0x13A TIF> (0037ms, 0703ms total)
T1D1C 000:763 JLINK_JTAG_StoreRaw(..., 0x108 Bits)  returns 0x00 (0000ms, 0740ms total)
T1D1C 000:763 JLINK_JTAG_GetU32(BitPos = 227) >0x108 TIF>  returns 0x1BA01477 (0001ms, 0740ms total)
T1D1C 000:764 JLINK_GetDebugInfo(0x100) -- Value=0xE00FF003  returns 0x00 (0000ms, 0741ms total)
T1D1C 000:765 JLINK_ReadMem (0xE00FF000, 0x0018 Bytes, ...) -- CPU_ReadMem(24 bytes @ 0xE00FF000) -- Data:  03 F0 F0 FF 03 20 F0 FF 03 30 F0 FF 03 10 F0 FF ...  returns 0x00 (0002ms, 0741ms total)
T1D1C 000:767 JLINK_ReadMemU32(0xE000ED00, 0x0001 Items, ...) -- CPU_ReadMem(4 bytes @ 0xE000ED00) -- Data:  31 C2 1F 41  returns 0x01 (0000ms, 0743ms total)
T1D1C 000:768 JLINK_Halt()  returns 0x00 (0000ms, 0743ms total)
T1D1C 000:768 JLINK_IsHalted()  returns TRUE (0000ms, 0743ms total)
T1D1C 000:768 JLINK_ReadMemU32(0xE000EDF0, 0x0001 Items, ...) -- CPU_ReadMem(4 bytes @ 0xE000EDF0) -- Data:  03 00 03 00  returns 0x01 (0001ms, 0743ms total)
T1D1C 000:769 JLINK_WriteU32(0xE000EDF0, 0xA05F0003) -- CPU_WriteMem(4 bytes @ 0xE000EDF0)  returns 0x00 (0001ms, 0744ms total)
T1D1C 000:770 JLINK_WriteU32(0xE000EDFC, 0x01000000) -- CPU_WriteMem(4 bytes @ 0xE000EDFC)  returns 0x00 (0000ms, 0745ms total)
T1D1C 000:770 JLINK_ReadMemU32(0xE0002000, 0x0001 Items, ...) -- CPU_ReadMem(4 bytes @ 0xE0002000) -- Data:  60 02 00 00  returns 0x01 (0001ms, 0745ms total)
T1D1C 000:771 JLINK_ReadMemU32(0xE0001000, 0x0001 Items, ...) -- CPU_ReadMem(4 bytes @ 0xE0001000) -- Data:  01 00 00 40  returns 0x01 (0001ms, 0746ms total)
T1D1C 000:777 JLINK_ExecCommand("Device = STM32F103ZE", ...)
                JLINK_ExecCommand("map ram 0x20000000 - 0x2000FFFF", ...)  returns 0x00 (0000ms, 0000ms total)
                JLINK_AddMirrorAreaEx(Addr = 0x00000000, Size = 0x00000000) (0000ms, 0000ms total)
                returns 0x00 (0001ms, 0747ms total)
T1D1C 000:778 JLINK_GetHWStatus(...)  returns 0x00 (0000ms, 0748ms total)
T1D1C 000:781 JLINK_GetNumBPUnits(Type = 0xFFFFFF00) >0x108 TIF>Found SWD-DP with ID 0x1BA01477 >0x33 TIF> >0x33 TIF> >0x35 TIF> >0x33 TIF> >0x35 TIF> >0x33 TIF> >0x33 TIF> >0x9B TIF> >0x9B TIF> >0x1D7 TIF> >0x13A TIF> >0x13A TIF>TPIU fitted. >0x13A TIF>ETM fitted. >0x13A TIF>  FPUnit: 6 code (BP) slots and 2 literal slots >0x13A TIF> >0x13A TIF>  returns 0x06 (0022ms, 0748ms total)
T1D1C 000:803 JLINK_GetNumBPUnits(Type = 0xF0)  returns 0x800 (0000ms, 0770ms total)
T1D1C 000:803 JLINK_GetNumWPUnits()  returns 0x04 (0000ms, 0770ms total)
T1D1C 000:808 JLINK_GetSpeed()  returns 0x7D0 (0000ms, 0770ms total)
T1D1C 000:811 JLINK_ReadMemU32(0xE000E004, 0x0001 Items, ...) -- CPU_ReadMem(4 bytes @ 0xE000E004) -- Data:  01 00 00 00  returns 0x01 (0001ms, 0770ms total)
T1D1C 000:812 JLINK_WriteMem(0xE0001000, 0x001C Bytes, ...) -- Data:  01 00 00 00 00 00 00 00 00 00 00 00 00 00 00 00 ... -- CPU_WriteMem(28 bytes @ 0xE0001000)  returns 0x1C (0001ms, 0771ms total)
T1D1C 000:813 JLINK_ReadMem (0xE0001000, 0x001C Bytes, ...) -- CPU_ReadMem(28 bytes @ 0xE0001000) -- Data:  01 00 00 40 00 00 00 00 00 00 00 00 00 00 00 00 ...  returns 0x00 (0001ms, 0772ms total)
T1D1C 000:814 JLINK_Halt()  returns 0x00 (0000ms, 0773ms total)
T1D1C 000:814 JLINK_IsHalted()  returns TRUE (0000ms, 0773ms total)
T1D1C 000:817 JLINK_WriteMem(0x20000000, 0x0164 Bytes, ...) -- Data:  00 BE 0A E0 0D 78 2D 06 68 40 08 24 40 00 00 D3 ... -- CPU_WriteMem(356 bytes @ 0x20000000)  returns 0x164 (0003ms, 0773ms total)
T1D1C 000:820 JLINK_WriteReg(R0, 0x08000000)  returns 0x00 (0000ms, 0776ms total)
T1D1C 000:820 JLINK_WriteReg(R1, 0x007A1200)  returns 0x00 (0000ms, 0776ms total)
T1D1C 000:820 JLINK_WriteReg(R2, 0x00000001)  returns 0x00 (0000ms, 0776ms total)
T1D1C 000:820 JLINK_WriteReg(R3, 0x00000000)  returns 0x00 (0000ms, 0776ms total)
T1D1C 000:820 JLINK_WriteReg(R4, 0x00000000)  returns 0x00 (0000ms, 0776ms total)
T1D1C 000:820 JLINK_WriteReg(R5, 0x00000000)  returns 0x00 (0000ms, 0776ms total)
T1D1C 000:820 JLINK_WriteReg(R6, 0x00000000)  returns 0x00 (0000ms, 0776ms total)
T1D1C 000:820 JLINK_WriteReg(R7, 0x00000000)  returns 0x00 (0000ms, 0776ms total)
T1D1C 000:820 JLINK_WriteReg(R8, 0x00000000)  returns 0x00 (0000ms, 0776ms total)
T1D1C 000:820 JLINK_WriteReg(R9, 0x20000160)  returns 0x00 (0001ms, 0776ms total)
T1D1C 000:821 JLINK_WriteReg(R10, 0x00000000)  returns 0x00 (0000ms, 0777ms total)
T1D1C 000:821 JLINK_WriteReg(R11, 0x00000000)  returns 0x00 (0000ms, 0777ms total)
T1D1C 000:821 JLINK_WriteReg(R12, 0x00000000)  returns 0x00 (0000ms, 0777ms total)
T1D1C 000:821 JLINK_WriteReg(R13, 0x20000800)  returns 0x00 (0000ms, 0777ms total)
T1D1C 000:821 JLINK_WriteReg(R14, 0x20000001)  returns 0x00 (0000ms, 0777ms total)
T1D1C 000:821 JLINK_WriteReg(R15, 0x20000038)  returns 0x00 (0000ms, 0777ms total)
T1D1C 000:821 JLINK_WriteReg(XPSR, 0x01000000)  returns 0x00 (0000ms, 0777ms total)
T1D1C 000:821 JLINK_WriteReg(MSP, 0x20000800)  returns 0x00 (0000ms, 0777ms total)
T1D1C 000:821 JLINK_WriteReg(PSP, 0x20000800)  returns 0x00 (0000ms, 0777ms total)
T1D1C 000:821 JLINK_WriteReg(CFBP, 0x00000000)  returns 0x00 (0000ms, 0777ms total)
T1D1C 000:821 JLINK_SetBPEx(Addr = 0x20000000, Type = 0xFFFFFFF2) -- CPU_ReadMem(2 bytes @ 0x20000000)  returns 0x00000001 (0000ms, 0777ms total)
T1D1C 000:821 JLINK_Go() -- CPU_WriteMem(2 bytes @ 0x20000000) -- CPU_WriteMem(4 bytes @ 0xE0002008) -- CPU_WriteMem(4 bytes @ 0xE000200C) -- CPU_WriteMem(4 bytes @ 0xE0002010) -- CPU_WriteMem(4 bytes @ 0xE0002014) -- CPU_WriteMem(4 bytes @ 0xE0002018) -- CPU_WriteMem(4 bytes @ 0xE000201C) (0009ms, 0777ms total)
T1D1C 000:830 JLINK_IsHalted() -- CPU_ReadMem(2 bytes @ 0x20000000)  returns TRUE (0007ms, 0786ms total)
T1D1C 000:837 JLINK_ReadReg(R15)  returns 0x20000000 (0000ms, 0786ms total)
T1D1C 000:837 JLINK_ClrBPEx(BPHandle = 0x00000001)  returns 0x00 (0000ms, 0786ms total)
T1D1C 000:837 JLINK_ReadReg(R0)  returns 0x00000000 (0000ms, 0786ms total)
T1D1C 000:837 JLINK_WriteReg(R0, 0x08000000)  returns 0x00 (0000ms, 0786ms total)
T1D1C 000:837 JLINK_WriteReg(R1, 0x007A1200)  returns 0x00 (0000ms, 0786ms total)
T1D1C 000:837 JLINK_WriteReg(R2, 0x00000001)  returns 0x00 (0000ms, 0786ms total)
T1D1C 000:837 JLINK_WriteReg(R3, 0x00000000)  returns 0x00 (0000ms, 0786ms total)
T1D1C 000:837 JLINK_WriteReg(R4, 0x00000000)  returns 0x00 (0000ms, 0786ms total)
T1D1C 000:837 JLINK_WriteReg(R5, 0x00000000)  returns 0x00 (0000ms, 0786ms total)
T1D1C 000:837 JLINK_WriteReg(R6, 0x00000000)  returns 0x00 (0000ms, 0786ms total)
T1D1C 000:837 JLINK_WriteReg(R7, 0x00000000)  returns 0x00 (0000ms, 0786ms total)
T1D1C 000:837 JLINK_WriteReg(R8, 0x00000000)  returns 0x00 (0000ms, 0786ms total)
T1D1C 000:837 JLINK_WriteReg(R9, 0x20000160)  returns 0x00 (0000ms, 0786ms total)
T1D1C 000:837 JLINK_WriteReg(R10, 0x00000000)  returns 0x00 (0000ms, 0786ms total)
T1D1C 000:837 JLINK_WriteReg(R11, 0x00000000)  returns 0x00 (0001ms, 0786ms total)
T1D1C 000:838 JLINK_WriteReg(R12, 0x00000000)  returns 0x00 (0000ms, 0787ms total)
T1D1C 000:838 JLINK_WriteReg(R13, 0x20000800)  returns 0x00 (0000ms, 0787ms total)
T1D1C 000:838 JLINK_WriteReg(R14, 0x20000001)  returns 0x00 (0000ms, 0787ms total)
T1D1C 000:838 JLINK_WriteReg(R15, 0x2000007C)  returns 0x00 (0000ms, 0787ms total)
T1D1C 000:838 JLINK_WriteReg(XPSR, 0x01000000)  returns 0x00 (0000ms, 0787ms total)
T1D1C 000:838 JLINK_WriteReg(MSP, 0x20000800)  returns 0x00 (0000ms, 0787ms total)
T1D1C 000:838 JLINK_WriteReg(PSP, 0x20000800)  returns 0x00 (0000ms, 0787ms total)
T1D1C 000:838 JLINK_WriteReg(CFBP, 0x00000000)  returns 0x00 (0000ms, 0787ms total)
T1D1C 000:838 JLINK_SetBPEx(Addr = 0x20000000, Type = 0xFFFFFFF2)  returns 0x00000002 (0000ms, 0787ms total)
T1D1C 000:838 JLINK_Go() -- CPU_WriteMem(4 bytes @ 0xE0002008) -- CPU_WriteMem(4 bytes @ 0xE000200C) -- CPU_WriteMem(4 bytes @ 0xE0002010) -- CPU_WriteMem(4 bytes @ 0xE0002014) -- CPU_WriteMem(4 bytes @ 0xE0002018) -- CPU_WriteMem(4 bytes @ 0xE000201C) (0006ms, 0787ms total)
T1D1C 000:844 JLINK_IsHalted()  returns FALSE (0001ms, 0793ms total)
T1D1C 000:896 JLINK_IsHalted() -- CPU_ReadMem(2 bytes @ 0x20000000)  returns TRUE (0006ms, 0793ms total)
T1D1C 000:902 JLINK_ReadReg(R15)  returns 0x20000000 (0000ms, 0793ms total)
T1D1C 000:902 JLINK_ClrBPEx(BPHandle = 0x00000002)  returns 0x00 (0000ms, 0793ms total)
T1D1C 000:902 JLINK_ReadReg(R0)  returns 0x00000000 (0000ms, 0793ms total)
T1D1C 000:954 JLINK_WriteReg(R0, 0x00000001)  returns 0x00 (0000ms, 0793ms total)
T1D1C 000:954 JLINK_WriteReg(R1, 0x007A1200)  returns 0x00 (0000ms, 0793ms total)
T1D1C 000:954 JLINK_WriteReg(R2, 0x00000001)  returns 0x00 (0000ms, 0793ms total)
T1D1C 000:954 JLINK_WriteReg(R3, 0x00000000)  returns 0x00 (0000ms, 0793ms total)
T1D1C 000:954 JLINK_WriteReg(R4, 0x00000000)  returns 0x00 (0000ms, 0793ms total)
T1D1C 000:954 JLINK_WriteReg(R5, 0x00000000)  returns 0x00 (0000ms, 0793ms total)
T1D1C 000:954 JLINK_WriteReg(R6, 0x00000000)  returns 0x00 (0000ms, 0793ms total)
T1D1C 000:954 JLINK_WriteReg(R7, 0x00000000)  returns 0x00 (0000ms, 0793ms total)
T1D1C 000:954 JLINK_WriteReg(R8, 0x00000000)  returns 0x00 (0000ms, 0793ms total)
T1D1C 000:954 JLINK_WriteReg(R9, 0x20000160)  returns 0x00 (0000ms, 0793ms total)
T1D1C 000:954 JLINK_WriteReg(R10, 0x00000000)  returns 0x00 (0000ms, 0793ms total)
T1D1C 000:954 JLINK_WriteReg(R11, 0x00000000)  returns 0x00 (0000ms, 0793ms total)
T1D1C 000:954 JLINK_WriteReg(R12, 0x00000000)  returns 0x00 (0000ms, 0793ms total)
T1D1C 000:954 JLINK_WriteReg(R13, 0x20000800)  returns 0x00 (0000ms, 0793ms total)
T1D1C 000:954 JLINK_WriteReg(R14, 0x20000001)  returns 0x00 (0000ms, 0793ms total)
T1D1C 000:954 JLINK_WriteReg(R15, 0x2000006A)  returns 0x00 (0000ms, 0793ms total)
T1D1C 000:954 JLINK_WriteReg(XPSR, 0x01000000)  returns 0x00 (0000ms, 0793ms total)
T1D1C 000:954 JLINK_WriteReg(MSP, 0x20000800)  returns 0x00 (0000ms, 0793ms total)
T1D1C 000:954 JLINK_WriteReg(PSP, 0x20000800)  returns 0x00 (0000ms, 0793ms total)
T1D1C 000:954 JLINK_WriteReg(CFBP, 0x00000000)  returns 0x00 (0000ms, 0793ms total)
T1D1C 000:954 JLINK_SetBPEx(Addr = 0x20000000, Type = 0xFFFFFFF2)  returns 0x00000003 (0000ms, 0793ms total)
T1D1C 000:954 JLINK_Go() -- CPU_WriteMem(4 bytes @ 0xE0002008) -- CPU_WriteMem(4 bytes @ 0xE000200C) -- CPU_WriteMem(4 bytes @ 0xE0002010) -- CPU_WriteMem(4 bytes @ 0xE0002014) -- CPU_WriteMem(4 bytes @ 0xE0002018) -- CPU_WriteMem(4 bytes @ 0xE000201C) (0007ms, 0793ms total)
T1D1C 000:961 JLINK_IsHalted() -- CPU_ReadMem(2 bytes @ 0x20000000)  returns TRUE (0007ms, 0800ms total)
T1D1C 000:968 JLINK_ReadReg(R15)  returns 0x20000000 (0000ms, 0800ms total)
T1D1C 000:968 JLINK_ClrBPEx(BPHandle = 0x00000003)  returns 0x00 (0000ms, 0800ms total)
T1D1C 000:968 JLINK_ReadReg(R0)  returns 0x00000000 (0000ms, 0800ms total)
T1D1C 000:971 JLINK_WriteMem(0x20000000, 0x0164 Bytes, ...) -- Data:  00 BE 0A E0 0D 78 2D 06 68 40 08 24 40 00 00 D3 ... -- CPU_WriteMem(356 bytes @ 0x20000000)  returns 0x164 (0005ms, 0800ms total)
T1D1C 000:976 JLINK_WriteReg(R0, 0x08000000)  returns 0x00 (0000ms, 0805ms total)
T1D1C 000:976 JLINK_WriteReg(R1, 0x007A1200)  returns 0x00 (0000ms, 0805ms total)
T1D1C 000:976 JLINK_WriteReg(R2, 0x00000002)  returns 0x00 (0000ms, 0805ms total)
T1D1C 000:976 JLINK_WriteReg(R3, 0x00000000)  returns 0x00 (0000ms, 0805ms total)
T1D1C 000:976 JLINK_WriteReg(R4, 0x00000000)  returns 0x00 (0000ms, 0805ms total)
T1D1C 000:976 JLINK_WriteReg(R5, 0x00000000)  returns 0x00 (0000ms, 0805ms total)
T1D1C 000:976 JLINK_WriteReg(R6, 0x00000000)  returns 0x00 (0000ms, 0805ms total)
T1D1C 000:976 JLINK_WriteReg(R7, 0x00000000)  returns 0x00 (0000ms, 0805ms total)
T1D1C 000:976 JLINK_WriteReg(R8, 0x00000000)  returns 0x00 (0000ms, 0805ms total)
T1D1C 000:976 JLINK_WriteReg(R9, 0x20000160)  returns 0x00 (0000ms, 0805ms total)
T1D1C 000:976 JLINK_WriteReg(R10, 0x00000000)  returns 0x00 (0000ms, 0805ms total)
T1D1C 000:976 JLINK_WriteReg(R11, 0x00000000)  returns 0x00 (0000ms, 0805ms total)
T1D1C 000:976 JLINK_WriteReg(R12, 0x00000000)  returns 0x00 (0000ms, 0805ms total)
T1D1C 000:976 JLINK_WriteReg(R13, 0x20000800)  returns 0x00 (0000ms, 0805ms total)
T1D1C 000:976 JLINK_WriteReg(R14, 0x20000001)  returns 0x00 (0000ms, 0805ms total)
T1D1C 000:976 JLINK_WriteReg(R15, 0x20000038)  returns 0x00 (0000ms, 0805ms total)
T1D1C 000:976 JLINK_WriteReg(XPSR, 0x01000000)  returns 0x00 (0000ms, 0805ms total)
T1D1C 000:976 JLINK_WriteReg(MSP, 0x20000800)  returns 0x00 (0000ms, 0805ms total)
T1D1C 000:976 JLINK_WriteReg(PSP, 0x20000800)  returns 0x00 (0000ms, 0805ms total)
T1D1C 000:976 JLINK_WriteReg(CFBP, 0x00000000)  returns 0x00 (0000ms, 0805ms total)
T1D1C 000:976 JLINK_SetBPEx(Addr = 0x20000000, Type = 0xFFFFFFF2) -- CPU_ReadMem(2 bytes @ 0x20000000)  returns 0x00000004 (0001ms, 0805ms total)
T1D1C 000:977 JLINK_Go() -- CPU_WriteMem(2 bytes @ 0x20000000) -- CPU_WriteMem(4 bytes @ 0xE0002008) -- CPU_WriteMem(4 bytes @ 0xE000200C) -- CPU_WriteMem(4 bytes @ 0xE0002010) -- CPU_WriteMem(4 bytes @ 0xE0002014) -- CPU_WriteMem(4 bytes @ 0xE0002018) -- CPU_WriteMem(4 bytes @ 0xE000201C) (0008ms, 0806ms total)
T1D1C 000:985 JLINK_IsHalted() -- CPU_ReadMem(2 bytes @ 0x20000000)  returns TRUE (0006ms, 0814ms total)
T1D1C 000:991 JLINK_ReadReg(R15)  returns 0x20000000 (0000ms, 0814ms total)
T1D1C 000:991 JLINK_ClrBPEx(BPHandle = 0x00000004)  returns 0x00 (0000ms, 0814ms total)
T1D1C 000:991 JLINK_ReadReg(R0)  returns 0x00000000 (0000ms, 0814ms total)
T1D1C 000:992 JLINK_WriteMem(0x20000164, 0x0400 Bytes, ...) -- Data:  80 63 00 20 85 2F 01 08 91 1D 00 08 7F 7F 01 08 ... -- CPU_WriteMem(1024 bytes @ 0x20000164)  returns 0x400 (0011ms, 0814ms total)
T1D1C 001:003 JLINK_WriteReg(R0, 0x08000000)  returns 0x00 (0001ms, 0825ms total)
T1D1C 001:004 JLINK_WriteReg(R1, 0x00000400)  returns 0x00 (0000ms, 0826ms total)
T1D1C 001:004 JLINK_WriteReg(R2, 0x20000164)  returns 0x00 (0000ms, 0826ms total)
T1D1C 001:004 JLINK_WriteReg(R3, 0x00000000)  returns 0x00 (0000ms, 0826ms total)
T1D1C 001:004 JLINK_WriteReg(R4, 0x00000000)  returns 0x00 (0000ms, 0826ms total)
T1D1C 001:004 JLINK_WriteReg(R5, 0x00000000)  returns 0x00 (0000ms, 0826ms total)
T1D1C 001:004 JLINK_WriteReg(R6, 0x00000000)  returns 0x00 (0000ms, 0826ms total)
T1D1C 001:004 JLINK_WriteReg(R7, 0x00000000)  returns 0x00 (0000ms, 0826ms total)
T1D1C 001:004 JLINK_WriteReg(R8, 0x00000000)  returns 0x00 (0000ms, 0826ms total)
T1D1C 001:004 JLINK_WriteReg(R9, 0x20000160)  returns 0x00 (0000ms, 0826ms total)
T1D1C 001:004 JLINK_WriteReg(R10, 0x00000000)  returns 0x00 (0000ms, 0826ms total)
T1D1C 001:004 JLINK_WriteReg(R11, 0x00000000)  returns 0x00 (0000ms, 0826ms total)
T1D1C 001:004 JLINK_WriteReg(R12, 0x00000000)  returns 0x00 (0000ms, 0826ms total)
T1D1C 001:004 JLINK_WriteReg(R13, 0x20000800)  returns 0x00 (0000ms, 0826ms total)
T1D1C 001:004 JLINK_WriteReg(R14, 0x20000001)  returns 0x00 (0000ms, 0826ms total)
T1D1C 001:004 JLINK_WriteReg(R15, 0x200000F4)  returns 0x00 (0000ms, 0826ms total)
T1D1C 001:004 JLINK_WriteReg(XPSR, 0x01000000)  returns 0x00 (0000ms, 0826ms total)
T1D1C 001:004 JLINK_WriteReg(MSP, 0x20000800)  returns 0x00 (0000ms, 0826ms total)
T1D1C 001:004 JLINK_WriteReg(PSP, 0x20000800)  returns 0x00 (0000ms, 0826ms total)
T1D1C 001:004 JLINK_WriteReg(CFBP, 0x00000000)  returns 0x00 (0000ms, 0826ms total)
T1D1C 001:004 JLINK_SetBPEx(Addr = 0x20000000, Type = 0xFFFFFFF2)  returns 0x00000005 (0000ms, 0826ms total)
T1D1C 001:004 JLINK_Go() -- CPU_WriteMem(4 bytes @ 0xE0002008) -- CPU_WriteMem(4 bytes @ 0xE000200C) -- CPU_WriteMem(4 bytes @ 0xE0002010) -- CPU_WriteMem(4 bytes @ 0xE0002014) -- CPU_WriteMem(4 bytes @ 0xE0002018) -- CPU_WriteMem(4 bytes @ 0xE000201C) (0007ms, 0826ms total)
T1D1C 001:012 JLINK_IsHalted()  returns FALSE (0001ms, 0833ms total)
T1D1C 001:064 JLINK_IsHalted() -- CPU_ReadMem(2 bytes @ 0x20000000)  returns TRUE (0006ms, 0833ms total)
T1D1C 001:070 JLINK_ReadReg(R15)  returns 0x20000000 (0000ms, 0833ms total)
T1D1C 001:070 JLINK_ClrBPEx(BPHandle = 0x00000005)  returns 0x00 (0000ms, 0833ms total)
T1D1C 001:070 JLINK_ReadReg(R0)  returns 0x00000000 (0000ms, 0833ms total)
T1D1C 001:070 JLINK_WriteMem(0x20000164, 0x0400 Bytes, ...) -- Data:  11 60 48 1C 32 F8 10 00 22 F8 11 00 48 1C 22 F8 ... -- CPU_WriteMem(1024 bytes @ 0x20000164)  returns 0x400 (0011ms, 0833ms total)
T1D1C 001:081 JLINK_WriteReg(R0, 0x08000400)  returns 0x00 (0001ms, 0844ms total)
T1D1C 001:082 JLINK_WriteReg(R1, 0x00000400)  returns 0x00 (0000ms, 0845ms total)
T1D1C 001:082 JLINK_WriteReg(R2, 0x20000164)  returns 0x00 (0000ms, 0845ms total)
T1D1C 001:082 JLINK_WriteReg(R3, 0x00000000)  returns 0x00 (0000ms, 0845ms total)
T1D1C 001:082 JLINK_WriteReg(R4, 0x00000000)  returns 0x00 (0000ms, 0845ms total)
T1D1C 001:082 JLINK_WriteReg(R5, 0x00000000)  returns 0x00 (0000ms, 0845ms total)
T1D1C 001:082 JLINK_WriteReg(R6, 0x00000000)  returns 0x00 (0000ms, 0845ms total)
T1D1C 001:082 JLINK_WriteReg(R7, 0x00000000)  returns 0x00 (0000ms, 0845ms total)
T1D1C 001:082 JLINK_WriteReg(R8, 0x00000000)  returns 0x00 (0000ms, 0845ms total)
T1D1C 001:082 JLINK_WriteReg(R9, 0x20000160)  returns 0x00 (0000ms, 0845ms total)
T1D1C 001:082 JLINK_WriteReg(R10, 0x00000000)  returns 0x00 (0000ms, 0845ms total)
T1D1C 001:082 JLINK_WriteReg(R11, 0x00000000)  returns 0x00 (0000ms, 0845ms total)
T1D1C 001:082 JLINK_WriteReg(R12, 0x00000000)  returns 0x00 (0000ms, 0845ms total)
T1D1C 001:082 JLINK_WriteReg(R13, 0x20000800)  returns 0x00 (0000ms, 0845ms total)
T1D1C 001:082 JLINK_WriteReg(R14, 0x20000001)  returns 0x00 (0000ms, 0845ms total)
T1D1C 001:082 JLINK_WriteReg(R15, 0x200000F4)  returns 0x00 (0000ms, 0845ms total)
T1D1C 001:082 JLINK_WriteReg(XPSR, 0x01000000)  returns 0x00 (0000ms, 0845ms total)
T1D1C 001:082 JLINK_WriteReg(MSP, 0x20000800)  returns 0x00 (0000ms, 0845ms total)
T1D1C 001:082 JLINK_WriteReg(PSP, 0x20000800)  returns 0x00 (0000ms, 0845ms total)
T1D1C 001:082 JLINK_WriteReg(CFBP, 0x00000000)  returns 0x00 (0000ms, 0845ms total)
T1D1C 001:082 JLINK_SetBPEx(Addr = 0x20000000, Type = 0xFFFFFFF2)  returns 0x00000006 (0000ms, 0845ms total)
T1D1C 001:082 JLINK_Go() -- CPU_WriteMem(4 bytes @ 0xE0002008) -- CPU_WriteMem(4 bytes @ 0xE000200C) -- CPU_WriteMem(4 bytes @ 0xE0002010) -- CPU_WriteMem(4 bytes @ 0xE0002014) -- CPU_WriteMem(4 bytes @ 0xE0002018) -- CPU_WriteMem(4 bytes @ 0xE000201C) (0007ms, 0845ms total)
T1D1C 001:089 JLINK_IsHalted()  returns FALSE (0000ms, 0852ms total)
T1D1C 001:140 JLINK_IsHalted() -- CPU_ReadMem(2 bytes @ 0x20000000)  returns TRUE (0007ms, 0852ms total)
T1D1C 001:147 JLINK_ReadReg(R15)  returns 0x20000000 (0000ms, 0852ms total)
T1D1C 001:147 JLINK_ClrBPEx(BPHandle = 0x00000006)  returns 0x00 (0000ms, 0852ms total)
T1D1C 001:147 JLINK_ReadReg(R0)  returns 0x00000000 (0000ms, 0852ms total)
T1D1C 001:147 JLINK_WriteMem(0x20000164, 0x0400 Bytes, ...) -- Data:  F7 E7 00 00 01 00 00 00 43 6C 6F 73 65 20 47 53 ... -- CPU_WriteMem(1024 bytes @ 0x20000164)  returns 0x400 (0011ms, 0852ms total)
T1D1C 001:158 JLINK_WriteReg(R0, 0x08000800)  returns 0x00 (0000ms, 0863ms total)
T1D1C 001:158 JLINK_WriteReg(R1, 0x00000400)  returns 0x00 (0000ms, 0863ms total)
T1D1C 001:158 JLINK_WriteReg(R2, 0x20000164)  returns 0x00 (0000ms, 0863ms total)
T1D1C 001:158 JLINK_WriteReg(R3, 0x00000000)  returns 0x00 (0000ms, 0863ms total)
T1D1C 001:158 JLINK_WriteReg(R4, 0x00000000)  returns 0x00 (0000ms, 0863ms total)
T1D1C 001:158 JLINK_WriteReg(R5, 0x00000000)  returns 0x00 (0000ms, 0863ms total)
T1D1C 001:158 JLINK_WriteReg(R6, 0x00000000)  returns 0x00 (0000ms, 0863ms total)
T1D1C 001:158 JLINK_WriteReg(R7, 0x00000000)  returns 0x00 (0000ms, 0863ms total)
T1D1C 001:158 JLINK_WriteReg(R8, 0x00000000)  returns 0x00 (0000ms, 0863ms total)
T1D1C 001:158 JLINK_WriteReg(R9, 0x20000160)  returns 0x00 (0000ms, 0863ms total)
T1D1C 001:158 JLINK_WriteReg(R10, 0x00000000)  returns 0x00 (0000ms, 0863ms total)
T1D1C 001:158 JLINK_WriteReg(R11, 0x00000000)  returns 0x00 (0000ms, 0863ms total)
T1D1C 001:158 JLINK_WriteReg(R12, 0x00000000)  returns 0x00 (0000ms, 0863ms total)
T1D1C 001:158 JLINK_WriteReg(R13, 0x20000800)  returns 0x00 (0000ms, 0863ms total)
T1D1C 001:158 JLINK_WriteReg(R14, 0x20000001)  returns 0x00 (0000ms, 0863ms total)
T1D1C 001:158 JLINK_WriteReg(R15, 0x200000F4)  returns 0x00 (0000ms, 0863ms total)
T1D1C 001:158 JLINK_WriteReg(XPSR, 0x01000000)  returns 0x00 (0000ms, 0863ms total)
T1D1C 001:158 JLINK_WriteReg(MSP, 0x20000800)  returns 0x00 (0000ms, 0863ms total)
T1D1C 001:158 JLINK_WriteReg(PSP, 0x20000800)  returns 0x00 (0000ms, 0863ms total)
T1D1C 001:158 JLINK_WriteReg(CFBP, 0x00000000)  returns 0x00 (0000ms, 0863ms total)
T1D1C 001:158 JLINK_SetBPEx(Addr = 0x20000000, Type = 0xFFFFFFF2)  returns 0x00000007 (0000ms, 0863ms total)
T1D1C 001:158 JLINK_Go() -- CPU_WriteMem(4 bytes @ 0xE0002008) -- CPU_WriteMem(4 bytes @ 0xE000200C) -- CPU_WriteMem(4 bytes @ 0xE0002010) -- CPU_WriteMem(4 bytes @ 0xE0002014) -- CPU_WriteMem(4 bytes @ 0xE0002018) -- CPU_WriteMem(4 bytes @ 0xE000201C) (0007ms, 0863ms total)
T1D1C 001:165 JLINK_IsHalted()  returns FALSE (0001ms, 0870ms total)
T1D1C 001:217 JLINK_IsHalted() -- CPU_ReadMem(2 bytes @ 0x20000000)  returns TRUE (0007ms, 0870ms total)
T1D1C 001:224 JLINK_ReadReg(R15)  returns 0x20000000 (0000ms, 0870ms total)
T1D1C 001:224 JLINK_ClrBPEx(BPHandle = 0x00000007)  returns 0x00 (0000ms, 0870ms total)
T1D1C 001:224 JLINK_ReadReg(R0)  returns 0x00000000 (0000ms, 0870ms total)
T1D1C 001:224 JLINK_WriteMem(0x20000164, 0x0400 Bytes, ...) -- Data:  12 F0 29 FB 05 46 29 46 04 F1 10 00 FF F7 AA FE ... -- CPU_WriteMem(1024 bytes @ 0x20000164)  returns 0x400 (0012ms, 0870ms total)
T1D1C 001:236 JLINK_WriteReg(R0, 0x08000C00)  returns 0x00 (0000ms, 0882ms total)
T1D1C 001:236 JLINK_WriteReg(R1, 0x00000400)  returns 0x00 (0000ms, 0882ms total)
T1D1C 001:236 JLINK_WriteReg(R2, 0x20000164)  returns 0x00 (0000ms, 0882ms total)
T1D1C 001:236 JLINK_WriteReg(R3, 0x00000000)  returns 0x00 (0000ms, 0882ms total)
T1D1C 001:236 JLINK_WriteReg(R4, 0x00000000)  returns 0x00 (0000ms, 0882ms total)
T1D1C 001:236 JLINK_WriteReg(R5, 0x00000000)  returns 0x00 (0000ms, 0882ms total)
T1D1C 001:236 JLINK_WriteReg(R6, 0x00000000)  returns 0x00 (0000ms, 0882ms total)
T1D1C 001:236 JLINK_WriteReg(R7, 0x00000000)  returns 0x00 (0000ms, 0882ms total)
T1D1C 001:236 JLINK_WriteReg(R8, 0x00000000)  returns 0x00 (0000ms, 0882ms total)
T1D1C 001:236 JLINK_WriteReg(R9, 0x20000160)  returns 0x00 (0000ms, 0882ms total)
T1D1C 001:236 JLINK_WriteReg(R10, 0x00000000)  returns 0x00 (0000ms, 0882ms total)
T1D1C 001:236 JLINK_WriteReg(R11, 0x00000000)  returns 0x00 (0000ms, 0882ms total)
T1D1C 001:236 JLINK_WriteReg(R12, 0x00000000)  returns 0x00 (0000ms, 0882ms total)
T1D1C 001:236 JLINK_WriteReg(R13, 0x20000800)  returns 0x00 (0000ms, 0882ms total)
T1D1C 001:236 JLINK_WriteReg(R14, 0x20000001)  returns 0x00 (0000ms, 0882ms total)
T1D1C 001:236 JLINK_WriteReg(R15, 0x200000F4)  returns 0x00 (0000ms, 0882ms total)
T1D1C 001:236 JLINK_WriteReg(XPSR, 0x01000000)  returns 0x00 (0000ms, 0882ms total)
T1D1C 001:236 JLINK_WriteReg(MSP, 0x20000800)  returns 0x00 (0000ms, 0882ms total)
T1D1C 001:236 JLINK_WriteReg(PSP, 0x20000800)  returns 0x00 (0000ms, 0882ms total)
T1D1C 001:236 JLINK_WriteReg(CFBP, 0x00000000)  returns 0x00 (0000ms, 0882ms total)
T1D1C 001:236 JLINK_SetBPEx(Addr = 0x20000000, Type = 0xFFFFFFF2)  returns 0x00000008 (0000ms, 0882ms total)
T1D1C 001:236 JLINK_Go() -- CPU_WriteMem(4 bytes @ 0xE0002008) -- CPU_WriteMem(4 bytes @ 0xE000200C) -- CPU_WriteMem(4 bytes @ 0xE0002010) -- CPU_WriteMem(4 bytes @ 0xE0002014) -- CPU_WriteMem(4 bytes @ 0xE0002018) -- CPU_WriteMem(4 bytes @ 0xE000201C) (0006ms, 0882ms total)
T1D1C 001:242 JLINK_IsHalted()  returns FALSE (0001ms, 0888ms total)
T1D1C 001:294 JLINK_IsHalted() -- CPU_ReadMem(2 bytes @ 0x20000000)  returns TRUE (0007ms, 0888ms total)
T1D1C 001:301 JLINK_ReadReg(R15)  returns 0x20000000 (0000ms, 0888ms total)
T1D1C 001:301 JLINK_ClrBPEx(BPHandle = 0x00000008)  returns 0x00 (0000ms, 0888ms total)
T1D1C 001:301 JLINK_ReadReg(R0)  returns 0x00000000 (0000ms, 0888ms total)
T1D1C 001:301 JLINK_WriteMem(0x20000164, 0x0400 Bytes, ...) -- Data:  9D F8 00 00 00 28 FB D0 00 BF 20 68 00 7E 10 F0 ... -- CPU_WriteMem(1024 bytes @ 0x20000164)  returns 0x400 (0012ms, 0888ms total)
T1D1C 001:313 JLINK_WriteReg(R0, 0x08001000)  returns 0x00 (0000ms, 0900ms total)
T1D1C 001:313 JLINK_WriteReg(R1, 0x00000400)  returns 0x00 (0000ms, 0900ms total)
T1D1C 001:313 JLINK_WriteReg(R2, 0x20000164)  returns 0x00 (0000ms, 0900ms total)
T1D1C 001:313 JLINK_WriteReg(R3, 0x00000000)  returns 0x00 (0000ms, 0900ms total)
T1D1C 001:313 JLINK_WriteReg(R4, 0x00000000)  returns 0x00 (0000ms, 0900ms total)
T1D1C 001:313 JLINK_WriteReg(R5, 0x00000000)  returns 0x00 (0000ms, 0900ms total)
T1D1C 001:313 JLINK_WriteReg(R6, 0x00000000)  returns 0x00 (0000ms, 0900ms total)
T1D1C 001:313 JLINK_WriteReg(R7, 0x00000000)  returns 0x00 (0000ms, 0900ms total)
T1D1C 001:313 JLINK_WriteReg(R8, 0x00000000)  returns 0x00 (0000ms, 0900ms total)
T1D1C 001:313 JLINK_WriteReg(R9, 0x20000160)  returns 0x00 (0000ms, 0900ms total)
T1D1C 001:313 JLINK_WriteReg(R10, 0x00000000)  returns 0x00 (0000ms, 0900ms total)
T1D1C 001:313 JLINK_WriteReg(R11, 0x00000000)  returns 0x00 (0000ms, 0900ms total)
T1D1C 001:313 JLINK_WriteReg(R12, 0x00000000)  returns 0x00 (0000ms, 0900ms total)
T1D1C 001:313 JLINK_WriteReg(R13, 0x20000800)  returns 0x00 (0000ms, 0900ms total)
T1D1C 001:313 JLINK_WriteReg(R14, 0x20000001)  returns 0x00 (0000ms, 0900ms total)
T1D1C 001:313 JLINK_WriteReg(R15, 0x200000F4)  returns 0x00 (0000ms, 0900ms total)
T1D1C 001:313 JLINK_WriteReg(XPSR, 0x01000000)  returns 0x00 (0000ms, 0900ms total)
T1D1C 001:313 JLINK_WriteReg(MSP, 0x20000800)  returns 0x00 (0000ms, 0900ms total)
T1D1C 001:313 JLINK_WriteReg(PSP, 0x20000800)  returns 0x00 (0000ms, 0900ms total)
T1D1C 001:313 JLINK_WriteReg(CFBP, 0x00000000)  returns 0x00 (0000ms, 0900ms total)
T1D1C 001:313 JLINK_SetBPEx(Addr = 0x20000000, Type = 0xFFFFFFF2)  returns 0x00000009 (0000ms, 0900ms total)
T1D1C 001:313 JLINK_Go() -- CPU_WriteMem(4 bytes @ 0xE0002008) -- CPU_WriteMem(4 bytes @ 0xE000200C) -- CPU_WriteMem(4 bytes @ 0xE0002010) -- CPU_WriteMem(4 bytes @ 0xE0002014) -- CPU_WriteMem(4 bytes @ 0xE0002018) -- CPU_WriteMem(4 bytes @ 0xE000201C) (0007ms, 0900ms total)
T1D1C 001:320 JLINK_IsHalted()  returns FALSE (0000ms, 0907ms total)
T1D1C 001:371 JLINK_IsHalted() -- CPU_ReadMem(2 bytes @ 0x20000000)  returns TRUE (0008ms, 0907ms total)
T1D1C 001:379 JLINK_ReadReg(R15)  returns 0x20000000 (0000ms, 0907ms total)
T1D1C 001:379 JLINK_ClrBPEx(BPHandle = 0x00000009)  returns 0x00 (0000ms, 0907ms total)
T1D1C 001:379 JLINK_ReadReg(R0)  returns 0x00000000 (0000ms, 0907ms total)
T1D1C 001:379 JLINK_WriteMem(0x20000164, 0x0400 Bytes, ...) -- Data:  6C 0A 00 00 20 46 15 F0 B2 FC 00 20 1C BD 38 B5 ... -- CPU_WriteMem(1024 bytes @ 0x20000164)  returns 0x400 (0012ms, 0907ms total)
T1D1C 001:391 JLINK_WriteReg(R0, 0x08001400)  returns 0x00 (0000ms, 0919ms total)
T1D1C 001:391 JLINK_WriteReg(R1, 0x00000400)  returns 0x00 (0000ms, 0919ms total)
T1D1C 001:391 JLINK_WriteReg(R2, 0x20000164)  returns 0x00 (0000ms, 0919ms total)
T1D1C 001:391 JLINK_WriteReg(R3, 0x00000000)  returns 0x00 (0000ms, 0919ms total)
T1D1C 001:391 JLINK_WriteReg(R4, 0x00000000)  returns 0x00 (0000ms, 0919ms total)
T1D1C 001:391 JLINK_WriteReg(R5, 0x00000000)  returns 0x00 (0000ms, 0919ms total)
T1D1C 001:391 JLINK_WriteReg(R6, 0x00000000)  returns 0x00 (0000ms, 0919ms total)
T1D1C 001:391 JLINK_WriteReg(R7, 0x00000000)  returns 0x00 (0000ms, 0919ms total)
T1D1C 001:391 JLINK_WriteReg(R8, 0x00000000)  returns 0x00 (0000ms, 0919ms total)
T1D1C 001:391 JLINK_WriteReg(R9, 0x20000160)  returns 0x00 (0000ms, 0919ms total)
T1D1C 001:391 JLINK_WriteReg(R10, 0x00000000)  returns 0x00 (0000ms, 0919ms total)
T1D1C 001:391 JLINK_WriteReg(R11, 0x00000000)  returns 0x00 (0000ms, 0919ms total)
T1D1C 001:391 JLINK_WriteReg(R12, 0x00000000)  returns 0x00 (0000ms, 0919ms total)
T1D1C 001:391 JLINK_WriteReg(R13, 0x20000800)  returns 0x00 (0000ms, 0919ms total)
T1D1C 001:391 JLINK_WriteReg(R14, 0x20000001)  returns 0x00 (0000ms, 0919ms total)
T1D1C 001:391 JLINK_WriteReg(R15, 0x200000F4)  returns 0x00 (0000ms, 0919ms total)
T1D1C 001:391 JLINK_WriteReg(XPSR, 0x01000000)  returns 0x00 (0000ms, 0919ms total)
T1D1C 001:391 JLINK_WriteReg(MSP, 0x20000800)  returns 0x00 (0000ms, 0919ms total)
T1D1C 001:391 JLINK_WriteReg(PSP, 0x20000800)  returns 0x00 (0000ms, 0919ms total)
T1D1C 001:391 JLINK_WriteReg(CFBP, 0x00000000)  returns 0x00 (0000ms, 0919ms total)
T1D1C 001:391 JLINK_SetBPEx(Addr = 0x20000000, Type = 0xFFFFFFF2)  returns 0x0000000A (0000ms, 0919ms total)
T1D1C 001:391 JLINK_Go() -- CPU_WriteMem(4 bytes @ 0xE0002008) -- CPU_WriteMem(4 bytes @ 0xE000200C) -- CPU_WriteMem(4 bytes @ 0xE0002010) -- CPU_WriteMem(4 bytes @ 0xE0002014) -- CPU_WriteMem(4 bytes @ 0xE0002018) -- CPU_WriteMem(4 bytes @ 0xE000201C) (0007ms, 0919ms total)
T1D1C 001:398 JLINK_IsHalted()  returns FALSE (0001ms, 0926ms total)
T1D1C 001:449 JLINK_IsHalted() -- CPU_ReadMem(2 bytes @ 0x20000000)  returns TRUE (0007ms, 0926ms total)
T1D1C 001:456 JLINK_ReadReg(R15)  returns 0x20000000 (0000ms, 0926ms total)
T1D1C 001:456 JLINK_ClrBPEx(BPHandle = 0x0000000A)  returns 0x00 (0000ms, 0926ms total)
T1D1C 001:456 JLINK_ReadReg(R0)  returns 0x00000000 (0000ms, 0926ms total)
T1D1C 001:456 JLINK_WriteMem(0x20000164, 0x0400 Bytes, ...) -- Data:  BD F8 16 00 42 00 28 46 02 99 17 F0 E6 FD 80 B2 ... -- CPU_WriteMem(1024 bytes @ 0x20000164)  returns 0x400 (0012ms, 0926ms total)
T1D1C 001:468 JLINK_WriteReg(R0, 0x08001800)  returns 0x00 (0000ms, 0938ms total)
T1D1C 001:468 JLINK_WriteReg(R1, 0x00000400)  returns 0x00 (0000ms, 0938ms total)
T1D1C 001:468 JLINK_WriteReg(R2, 0x20000164)  returns 0x00 (0000ms, 0938ms total)
T1D1C 001:468 JLINK_WriteReg(R3, 0x00000000)  returns 0x00 (0000ms, 0938ms total)
T1D1C 001:468 JLINK_WriteReg(R4, 0x00000000)  returns 0x00 (0000ms, 0938ms total)
T1D1C 001:468 JLINK_WriteReg(R5, 0x00000000)  returns 0x00 (0000ms, 0938ms total)
T1D1C 001:468 JLINK_WriteReg(R6, 0x00000000)  returns 0x00 (0000ms, 0938ms total)
T1D1C 001:468 JLINK_WriteReg(R7, 0x00000000)  returns 0x00 (0000ms, 0938ms total)
T1D1C 001:468 JLINK_WriteReg(R8, 0x00000000)  returns 0x00 (0000ms, 0938ms total)
T1D1C 001:468 JLINK_WriteReg(R9, 0x20000160)  returns 0x00 (0000ms, 0938ms total)
T1D1C 001:468 JLINK_WriteReg(R10, 0x00000000)  returns 0x00 (0000ms, 0938ms total)
T1D1C 001:468 JLINK_WriteReg(R11, 0x00000000)  returns 0x00 (0000ms, 0938ms total)
T1D1C 001:468 JLINK_WriteReg(R12, 0x00000000)  returns 0x00 (0000ms, 0938ms total)
T1D1C 001:468 JLINK_WriteReg(R13, 0x20000800)  returns 0x00 (0000ms, 0938ms total)
T1D1C 001:468 JLINK_WriteReg(R14, 0x20000001)  returns 0x00 (0000ms, 0938ms total)
T1D1C 001:468 JLINK_WriteReg(R15, 0x200000F4)  returns 0x00 (0000ms, 0938ms total)
T1D1C 001:468 JLINK_WriteReg(XPSR, 0x01000000)  returns 0x00 (0000ms, 0938ms total)
T1D1C 001:468 JLINK_WriteReg(MSP, 0x20000800)  returns 0x00 (0000ms, 0938ms total)
T1D1C 001:468 JLINK_WriteReg(PSP, 0x20000800)  returns 0x00 (0000ms, 0938ms total)
T1D1C 001:468 JLINK_WriteReg(CFBP, 0x00000000)  returns 0x00 (0000ms, 0938ms total)
T1D1C 001:468 JLINK_SetBPEx(Addr = 0x20000000, Type = 0xFFFFFFF2)  returns 0x0000000B (0000ms, 0938ms total)
T1D1C 001:468 JLINK_Go() -- CPU_WriteMem(4 bytes @ 0xE0002008) -- CPU_WriteMem(4 bytes @ 0xE000200C) -- CPU_WriteMem(4 bytes @ 0xE0002010) -- CPU_WriteMem(4 bytes @ 0xE0002014) -- CPU_WriteMem(4 bytes @ 0xE0002018) -- CPU_WriteMem(4 bytes @ 0xE000201C) (0007ms, 0938ms total)
T1D1C 001:475 JLINK_IsHalted()  returns FALSE (0001ms, 0945ms total)
T1D1C 001:527 JLINK_IsHalted() -- CPU_ReadMem(2 bytes @ 0x20000000)  returns TRUE (0006ms, 0945ms total)
T1D1C 001:533 JLINK_ReadReg(R15)  returns 0x20000000 (0000ms, 0945ms total)
T1D1C 001:533 JLINK_ClrBPEx(BPHandle = 0x0000000B)  returns 0x00 (0000ms, 0945ms total)
T1D1C 001:533 JLINK_ReadReg(R0)  returns 0x00000000 (0000ms, 0945ms total)
T1D1C 001:533 JLINK_WriteMem(0x20000164, 0x0400 Bytes, ...) -- Data:  20 20 25 64 0A 00 00 00 44 61 74 61 46 6C 61 67 ... -- CPU_WriteMem(1024 bytes @ 0x20000164)  returns 0x400 (0012ms, 0945ms total)
T1D1C 001:545 JLINK_WriteReg(R0, 0x08001C00)  returns 0x00 (0000ms, 0957ms total)
T1D1C 001:545 JLINK_WriteReg(R1, 0x00000400)  returns 0x00 (0000ms, 0957ms total)
T1D1C 001:545 JLINK_WriteReg(R2, 0x20000164)  returns 0x00 (0000ms, 0957ms total)
T1D1C 001:545 JLINK_WriteReg(R3, 0x00000000)  returns 0x00 (0000ms, 0957ms total)
T1D1C 001:545 JLINK_WriteReg(R4, 0x00000000)  returns 0x00 (0000ms, 0957ms total)
T1D1C 001:545 JLINK_WriteReg(R5, 0x00000000)  returns 0x00 (0000ms, 0957ms total)
T1D1C 001:545 JLINK_WriteReg(R6, 0x00000000)  returns 0x00 (0000ms, 0957ms total)
T1D1C 001:545 JLINK_WriteReg(R7, 0x00000000)  returns 0x00 (0000ms, 0957ms total)
T1D1C 001:545 JLINK_WriteReg(R8, 0x00000000)  returns 0x00 (0000ms, 0957ms total)
T1D1C 001:545 JLINK_WriteReg(R9, 0x20000160)  returns 0x00 (0000ms, 0957ms total)
T1D1C 001:545 JLINK_WriteReg(R10, 0x00000000)  returns 0x00 (0000ms, 0957ms total)
T1D1C 001:545 JLINK_WriteReg(R11, 0x00000000)  returns 0x00 (0000ms, 0957ms total)
T1D1C 001:545 JLINK_WriteReg(R12, 0x00000000)  returns 0x00 (0000ms, 0957ms total)
T1D1C 001:545 JLINK_WriteReg(R13, 0x20000800)  returns 0x00 (0000ms, 0957ms total)
T1D1C 001:545 JLINK_WriteReg(R14, 0x20000001)  returns 0x00 (0000ms, 0957ms total)
T1D1C 001:545 JLINK_WriteReg(R15, 0x200000F4)  returns 0x00 (0000ms, 0957ms total)
T1D1C 001:545 JLINK_WriteReg(XPSR, 0x01000000)  returns 0x00 (0000ms, 0957ms total)
T1D1C 001:545 JLINK_WriteReg(MSP, 0x20000800)  returns 0x00 (0000ms, 0957ms total)
T1D1C 001:545 JLINK_WriteReg(PSP, 0x20000800)  returns 0x00 (0000ms, 0957ms total)
T1D1C 001:545 JLINK_WriteReg(CFBP, 0x00000000)  returns 0x00 (0000ms, 0957ms total)
T1D1C 001:545 JLINK_SetBPEx(Addr = 0x20000000, Type = 0xFFFFFFF2)  returns 0x0000000C (0000ms, 0957ms total)
T1D1C 001:545 JLINK_Go() -- CPU_WriteMem(4 bytes @ 0xE0002008) -- CPU_WriteMem(4 bytes @ 0xE000200C) -- CPU_WriteMem(4 bytes @ 0xE0002010) -- CPU_WriteMem(4 bytes @ 0xE0002014) -- CPU_WriteMem(4 bytes @ 0xE0002018) -- CPU_WriteMem(4 bytes @ 0xE000201C) (0007ms, 0957ms total)
T1D1C 001:552 JLINK_IsHalted()  returns FALSE (0001ms, 0964ms total)
T1D1C 001:604 JLINK_IsHalted() -- CPU_ReadMem(2 bytes @ 0x20000000)  returns TRUE (0007ms, 0964ms total)
T1D1C 001:611 JLINK_ReadReg(R15)  returns 0x20000000 (0000ms, 0964ms total)
T1D1C 001:611 JLINK_ClrBPEx(BPHandle = 0x0000000C)  returns 0x00 (0000ms, 0964ms total)
T1D1C 001:611 JLINK_ReadReg(R0)  returns 0x00000000 (0000ms, 0964ms total)
T1D1C 001:611 JLINK_WriteMem(0x20000164, 0x0400 Bytes, ...) -- Data:  68 89 AD F8 04 00 01 A9 E8 68 0E F0 A7 FE 1C E0 ... -- CPU_WriteMem(1024 bytes @ 0x20000164)  returns 0x400 (0011ms, 0964ms total)
T1D1C 001:622 JLINK_WriteReg(R0, 0x08002000)  returns 0x00 (0000ms, 0975ms total)
T1D1C 001:622 JLINK_WriteReg(R1, 0x00000400)  returns 0x00 (0000ms, 0975ms total)
T1D1C 001:622 JLINK_WriteReg(R2, 0x20000164)  returns 0x00 (0000ms, 0975ms total)
T1D1C 001:622 JLINK_WriteReg(R3, 0x00000000)  returns 0x00 (0000ms, 0975ms total)
T1D1C 001:622 JLINK_WriteReg(R4, 0x00000000)  returns 0x00 (0000ms, 0975ms total)
T1D1C 001:622 JLINK_WriteReg(R5, 0x00000000)  returns 0x00 (0000ms, 0975ms total)
T1D1C 001:622 JLINK_WriteReg(R6, 0x00000000)  returns 0x00 (0000ms, 0975ms total)
T1D1C 001:622 JLINK_WriteReg(R7, 0x00000000)  returns 0x00 (0000ms, 0975ms total)
T1D1C 001:622 JLINK_WriteReg(R8, 0x00000000)  returns 0x00 (0000ms, 0975ms total)
T1D1C 001:622 JLINK_WriteReg(R9, 0x20000160)  returns 0x00 (0000ms, 0975ms total)
T1D1C 001:622 JLINK_WriteReg(R10, 0x00000000)  returns 0x00 (0000ms, 0975ms total)
T1D1C 001:622 JLINK_WriteReg(R11, 0x00000000)  returns 0x00 (0000ms, 0975ms total)
T1D1C 001:622 JLINK_WriteReg(R12, 0x00000000)  returns 0x00 (0000ms, 0975ms total)
T1D1C 001:622 JLINK_WriteReg(R13, 0x20000800)  returns 0x00 (0000ms, 0975ms total)
T1D1C 001:622 JLINK_WriteReg(R14, 0x20000001)  returns 0x00 (0000ms, 0975ms total)
T1D1C 001:622 JLINK_WriteReg(R15, 0x200000F4)  returns 0x00 (0000ms, 0975ms total)
T1D1C 001:622 JLINK_WriteReg(XPSR, 0x01000000)  returns 0x00 (0000ms, 0975ms total)
T1D1C 001:622 JLINK_WriteReg(MSP, 0x20000800)  returns 0x00 (0000ms, 0975ms total)
T1D1C 001:622 JLINK_WriteReg(PSP, 0x20000800)  returns 0x00 (0000ms, 0975ms total)
T1D1C 001:622 JLINK_WriteReg(CFBP, 0x00000000)  returns 0x00 (0000ms, 0975ms total)
T1D1C 001:622 JLINK_SetBPEx(Addr = 0x20000000, Type = 0xFFFFFFF2)  returns 0x0000000D (0000ms, 0975ms total)
T1D1C 001:622 JLINK_Go() -- CPU_WriteMem(4 bytes @ 0xE0002008) -- CPU_WriteMem(4 bytes @ 0xE000200C) -- CPU_WriteMem(4 bytes @ 0xE0002010) -- CPU_WriteMem(4 bytes @ 0xE0002014) -- CPU_WriteMem(4 bytes @ 0xE0002018) -- CPU_WriteMem(4 bytes @ 0xE000201C) (0008ms, 0975ms total)
T1D1C 001:630 JLINK_IsHalted()  returns FALSE (0000ms, 0983ms total)
T1D1C 001:681 JLINK_IsHalted() -- CPU_ReadMem(2 bytes @ 0x20000000)  returns TRUE (0007ms, 0983ms total)
T1D1C 001:688 JLINK_ReadReg(R15)  returns 0x20000000 (0000ms, 0983ms total)
T1D1C 001:688 JLINK_ClrBPEx(BPHandle = 0x0000000D)  returns 0x00 (0000ms, 0983ms total)
T1D1C 001:688 JLINK_ReadReg(R0)  returns 0x00000000 (0000ms, 0983ms total)
T1D1C 001:688 JLINK_WriteMem(0x20000164, 0x0400 Bytes, ...) -- Data:  13 D0 C4 49 60 6A 88 42 0F D0 BC 49 60 6A 88 42 ... -- CPU_WriteMem(1024 bytes @ 0x20000164)  returns 0x400 (0011ms, 0983ms total)
T1D1C 001:699 JLINK_WriteReg(R0, 0x08002400)  returns 0x00 (0000ms, 0994ms total)
T1D1C 001:699 JLINK_WriteReg(R1, 0x00000400)  returns 0x00 (0000ms, 0994ms total)
T1D1C 001:699 JLINK_WriteReg(R2, 0x20000164)  returns 0x00 (0000ms, 0994ms total)
T1D1C 001:699 JLINK_WriteReg(R3, 0x00000000)  returns 0x00 (0000ms, 0994ms total)
T1D1C 001:699 JLINK_WriteReg(R4, 0x00000000)  returns 0x00 (0000ms, 0994ms total)
T1D1C 001:699 JLINK_WriteReg(R5, 0x00000000)  returns 0x00 (0000ms, 0994ms total)
T1D1C 001:699 JLINK_WriteReg(R6, 0x00000000)  returns 0x00 (0000ms, 0994ms total)
T1D1C 001:699 JLINK_WriteReg(R7, 0x00000000)  returns 0x00 (0000ms, 0994ms total)
T1D1C 001:699 JLINK_WriteReg(R8, 0x00000000)  returns 0x00 (0000ms, 0994ms total)
T1D1C 001:699 JLINK_WriteReg(R9, 0x20000160)  returns 0x00 (0000ms, 0994ms total)
T1D1C 001:699 JLINK_WriteReg(R10, 0x00000000)  returns 0x00 (0000ms, 0994ms total)
T1D1C 001:699 JLINK_WriteReg(R11, 0x00000000)  returns 0x00 (0000ms, 0994ms total)
T1D1C 001:699 JLINK_WriteReg(R12, 0x00000000)  returns 0x00 (0000ms, 0994ms total)
T1D1C 001:699 JLINK_WriteReg(R13, 0x20000800)  returns 0x00 (0000ms, 0994ms total)
T1D1C 001:699 JLINK_WriteReg(R14, 0x20000001)  returns 0x00 (0000ms, 0994ms total)
T1D1C 001:699 JLINK_WriteReg(R15, 0x200000F4)  returns 0x00 (0000ms, 0994ms total)
T1D1C 001:699 JLINK_WriteReg(XPSR, 0x01000000)  returns 0x00 (0000ms, 0994ms total)
T1D1C 001:699 JLINK_WriteReg(MSP, 0x20000800)  returns 0x00 (0000ms, 0994ms total)
T1D1C 001:699 JLINK_WriteReg(PSP, 0x20000800)  returns 0x00 (0000ms, 0994ms total)
T1D1C 001:699 JLINK_WriteReg(CFBP, 0x00000000)  returns 0x00 (0000ms, 0994ms total)
T1D1C 001:699 JLINK_SetBPEx(Addr = 0x20000000, Type = 0xFFFFFFF2)  returns 0x0000000E (0000ms, 0994ms total)
T1D1C 001:699 JLINK_Go() -- CPU_WriteMem(4 bytes @ 0xE0002008) -- CPU_WriteMem(4 bytes @ 0xE000200C) -- CPU_WriteMem(4 bytes @ 0xE0002010) -- CPU_WriteMem(4 bytes @ 0xE0002014) -- CPU_WriteMem(4 bytes @ 0xE0002018) -- CPU_WriteMem(4 bytes @ 0xE000201C) (0007ms, 0994ms total)
T1D1C 001:706 JLINK_IsHalted()  returns FALSE (0000ms, 1001ms total)
T1D1C 001:757 JLINK_IsHalted() -- CPU_ReadMem(2 bytes @ 0x20000000)  returns TRUE (0007ms, 1001ms total)
T1D1C 001:764 JLINK_ReadReg(R15)  returns 0x20000000 (0000ms, 1001ms total)
T1D1C 001:764 JLINK_ClrBPEx(BPHandle = 0x0000000E)  returns 0x00 (0000ms, 1001ms total)
T1D1C 001:764 JLINK_ReadReg(R0)  returns 0x00000000 (0000ms, 1001ms total)
T1D1C 001:764 JLINK_WriteMem(0x20000164, 0x0400 Bytes, ...) -- Data:  8D F8 01 00 8D F8 02 00 01 20 8D F8 03 00 68 46 ... -- CPU_WriteMem(1024 bytes @ 0x20000164)  returns 0x400 (0012ms, 1001ms total)
T1D1C 001:776 JLINK_WriteReg(R0, 0x08002800)  returns 0x00 (0000ms, 1013ms total)
T1D1C 001:776 JLINK_WriteReg(R1, 0x00000400)  returns 0x00 (0000ms, 1013ms total)
T1D1C 001:776 JLINK_WriteReg(R2, 0x20000164)  returns 0x00 (0000ms, 1013ms total)
T1D1C 001:776 JLINK_WriteReg(R3, 0x00000000)  returns 0x00 (0000ms, 1013ms total)
T1D1C 001:776 JLINK_WriteReg(R4, 0x00000000)  returns 0x00 (0000ms, 1013ms total)
T1D1C 001:776 JLINK_WriteReg(R5, 0x00000000)  returns 0x00 (0000ms, 1013ms total)
T1D1C 001:776 JLINK_WriteReg(R6, 0x00000000)  returns 0x00 (0000ms, 1013ms total)
T1D1C 001:776 JLINK_WriteReg(R7, 0x00000000)  returns 0x00 (0000ms, 1013ms total)
T1D1C 001:776 JLINK_WriteReg(R8, 0x00000000)  returns 0x00 (0000ms, 1013ms total)
T1D1C 001:776 JLINK_WriteReg(R9, 0x20000160)  returns 0x00 (0000ms, 1013ms total)
T1D1C 001:776 JLINK_WriteReg(R10, 0x00000000)  returns 0x00 (0000ms, 1013ms total)
T1D1C 001:776 JLINK_WriteReg(R11, 0x00000000)  returns 0x00 (0000ms, 1013ms total)
T1D1C 001:776 JLINK_WriteReg(R12, 0x00000000)  returns 0x00 (0000ms, 1013ms total)
T1D1C 001:776 JLINK_WriteReg(R13, 0x20000800)  returns 0x00 (0000ms, 1013ms total)
T1D1C 001:776 JLINK_WriteReg(R14, 0x20000001)  returns 0x00 (0000ms, 1013ms total)
T1D1C 001:776 JLINK_WriteReg(R15, 0x200000F4)  returns 0x00 (0000ms, 1013ms total)
T1D1C 001:776 JLINK_WriteReg(XPSR, 0x01000000)  returns 0x00 (0000ms, 1013ms total)
T1D1C 001:776 JLINK_WriteReg(MSP, 0x20000800)  returns 0x00 (0000ms, 1013ms total)
T1D1C 001:776 JLINK_WriteReg(PSP, 0x20000800)  returns 0x00 (0000ms, 1013ms total)
T1D1C 001:776 JLINK_WriteReg(CFBP, 0x00000000)  returns 0x00 (0000ms, 1013ms total)
T1D1C 001:776 JLINK_SetBPEx(Addr = 0x20000000, Type = 0xFFFFFFF2)  returns 0x0000000F (0000ms, 1013ms total)
T1D1C 001:776 JLINK_Go() -- CPU_WriteMem(4 bytes @ 0xE0002008) -- CPU_WriteMem(4 bytes @ 0xE000200C) -- CPU_WriteMem(4 bytes @ 0xE0002010) -- CPU_WriteMem(4 bytes @ 0xE0002014) -- CPU_WriteMem(4 bytes @ 0xE0002018) -- CPU_WriteMem(4 bytes @ 0xE000201C) (0006ms, 1013ms total)
T1D1C 001:782 JLINK_IsHalted()  returns FALSE (0001ms, 1019ms total)
T1D1C 001:834 JLINK_IsHalted() -- CPU_ReadMem(2 bytes @ 0x20000000)  returns TRUE (0007ms, 1019ms total)
T1D1C 001:841 JLINK_ReadReg(R15)  returns 0x20000000 (0000ms, 1019ms total)
T1D1C 001:841 JLINK_ClrBPEx(BPHandle = 0x0000000F)  returns 0x00 (0000ms, 1019ms total)
T1D1C 001:841 JLINK_ReadReg(R0)  returns 0x00000000 (0000ms, 1019ms total)
T1D1C 001:842 JLINK_WriteMem(0x20000164, 0x0400 Bytes, ...) -- Data:  02 90 00 20 04 90 06 90 07 90 4F F4 80 50 09 90 ... -- CPU_WriteMem(1024 bytes @ 0x20000164)  returns 0x400 (0011ms, 1019ms total)
T1D1C 001:853 JLINK_WriteReg(R0, 0x08002C00)  returns 0x00 (0000ms, 1030ms total)
T1D1C 001:853 JLINK_WriteReg(R1, 0x00000400)  returns 0x00 (0000ms, 1030ms total)
T1D1C 001:853 JLINK_WriteReg(R2, 0x20000164)  returns 0x00 (0000ms, 1030ms total)
T1D1C 001:853 JLINK_WriteReg(R3, 0x00000000)  returns 0x00 (0000ms, 1030ms total)
T1D1C 001:853 JLINK_WriteReg(R4, 0x00000000)  returns 0x00 (0000ms, 1030ms total)
T1D1C 001:853 JLINK_WriteReg(R5, 0x00000000)  returns 0x00 (0000ms, 1030ms total)
T1D1C 001:853 JLINK_WriteReg(R6, 0x00000000)  returns 0x00 (0000ms, 1030ms total)
T1D1C 001:853 JLINK_WriteReg(R7, 0x00000000)  returns 0x00 (0000ms, 1030ms total)
T1D1C 001:853 JLINK_WriteReg(R8, 0x00000000)  returns 0x00 (0000ms, 1030ms total)
T1D1C 001:853 JLINK_WriteReg(R9, 0x20000160)  returns 0x00 (0000ms, 1030ms total)
T1D1C 001:853 JLINK_WriteReg(R10, 0x00000000)  returns 0x00 (0000ms, 1030ms total)
T1D1C 001:853 JLINK_WriteReg(R11, 0x00000000)  returns 0x00 (0000ms, 1030ms total)
T1D1C 001:853 JLINK_WriteReg(R12, 0x00000000)  returns 0x00 (0000ms, 1030ms total)
T1D1C 001:853 JLINK_WriteReg(R13, 0x20000800)  returns 0x00 (0000ms, 1030ms total)
T1D1C 001:853 JLINK_WriteReg(R14, 0x20000001)  returns 0x00 (0000ms, 1030ms total)
T1D1C 001:853 JLINK_WriteReg(R15, 0x200000F4)  returns 0x00 (0000ms, 1030ms total)
T1D1C 001:853 JLINK_WriteReg(XPSR, 0x01000000)  returns 0x00 (0001ms, 1030ms total)
T1D1C 001:854 JLINK_WriteReg(MSP, 0x20000800)  returns 0x00 (0000ms, 1031ms total)
T1D1C 001:854 JLINK_WriteReg(PSP, 0x20000800)  returns 0x00 (0000ms, 1031ms total)
T1D1C 001:854 JLINK_WriteReg(CFBP, 0x00000000)  returns 0x00 (0000ms, 1031ms total)
T1D1C 001:854 JLINK_SetBPEx(Addr = 0x20000000, Type = 0xFFFFFFF2)  returns 0x00000010 (0000ms, 1031ms total)
T1D1C 001:854 JLINK_Go() -- CPU_WriteMem(4 bytes @ 0xE0002008) -- CPU_WriteMem(4 bytes @ 0xE000200C) -- CPU_WriteMem(4 bytes @ 0xE0002010) -- CPU_WriteMem(4 bytes @ 0xE0002014) -- CPU_WriteMem(4 bytes @ 0xE0002018) -- CPU_WriteMem(4 bytes @ 0xE000201C) (0007ms, 1031ms total)
T1D1C 001:861 JLINK_IsHalted()  returns FALSE (0000ms, 1038ms total)
T1D1C 001:911 JLINK_IsHalted() -- CPU_ReadMem(2 bytes @ 0x20000000)  returns TRUE (0007ms, 1038ms total)
T1D1C 001:918 JLINK_ReadReg(R15)  returns 0x20000000 (0000ms, 1038ms total)
T1D1C 001:918 JLINK_ClrBPEx(BPHandle = 0x00000010)  returns 0x00 (0000ms, 1038ms total)
T1D1C 001:918 JLINK_ReadReg(R0)  returns 0x00000000 (0000ms, 1038ms total)
T1D1C 001:919 JLINK_WriteMem(0x20000164, 0x0400 Bytes, ...) -- Data:  03 20 8D F8 02 00 F4 4A 91 88 10 68 0E F0 83 F8 ... -- CPU_WriteMem(1024 bytes @ 0x20000164)  returns 0x400 (0011ms, 1038ms total)
T1D1C 001:930 JLINK_WriteReg(R0, 0x08003000)  returns 0x00 (0000ms, 1049ms total)
T1D1C 001:930 JLINK_WriteReg(R1, 0x00000400)  returns 0x00 (0000ms, 1049ms total)
T1D1C 001:930 JLINK_WriteReg(R2, 0x20000164)  returns 0x00 (0000ms, 1049ms total)
T1D1C 001:930 JLINK_WriteReg(R3, 0x00000000)  returns 0x00 (0000ms, 1049ms total)
T1D1C 001:930 JLINK_WriteReg(R4, 0x00000000)  returns 0x00 (0000ms, 1049ms total)
T1D1C 001:930 JLINK_WriteReg(R5, 0x00000000)  returns 0x00 (0000ms, 1049ms total)
T1D1C 001:930 JLINK_WriteReg(R6, 0x00000000)  returns 0x00 (0000ms, 1049ms total)
T1D1C 001:930 JLINK_WriteReg(R7, 0x00000000)  returns 0x00 (0000ms, 1049ms total)
T1D1C 001:930 JLINK_WriteReg(R8, 0x00000000)  returns 0x00 (0000ms, 1049ms total)
T1D1C 001:930 JLINK_WriteReg(R9, 0x20000160)  returns 0x00 (0000ms, 1049ms total)
T1D1C 001:930 JLINK_WriteReg(R10, 0x00000000)  returns 0x00 (0000ms, 1049ms total)
T1D1C 001:930 JLINK_WriteReg(R11, 0x00000000)  returns 0x00 (0000ms, 1049ms total)
T1D1C 001:930 JLINK_WriteReg(R12, 0x00000000)  returns 0x00 (0000ms, 1049ms total)
T1D1C 001:930 JLINK_WriteReg(R13, 0x20000800)  returns 0x00 (0000ms, 1049ms total)
T1D1C 001:930 JLINK_WriteReg(R14, 0x20000001)  returns 0x00 (0000ms, 1049ms total)
T1D1C 001:930 JLINK_WriteReg(R15, 0x200000F4)  returns 0x00 (0000ms, 1049ms total)
T1D1C 001:930 JLINK_WriteReg(XPSR, 0x01000000)  returns 0x00 (0000ms, 1049ms total)
T1D1C 001:930 JLINK_WriteReg(MSP, 0x20000800)  returns 0x00 (0000ms, 1049ms total)
T1D1C 001:930 JLINK_WriteReg(PSP, 0x20000800)  returns 0x00 (0000ms, 1049ms total)
T1D1C 001:930 JLINK_WriteReg(CFBP, 0x00000000)  returns 0x00 (0000ms, 1049ms total)
T1D1C 001:930 JLINK_SetBPEx(Addr = 0x20000000, Type = 0xFFFFFFF2)  returns 0x00000011 (0000ms, 1049ms total)
T1D1C 001:930 JLINK_Go() -- CPU_WriteMem(4 bytes @ 0xE0002008) -- CPU_WriteMem(4 bytes @ 0xE000200C) -- CPU_WriteMem(4 bytes @ 0xE0002010) -- CPU_WriteMem(4 bytes @ 0xE0002014) -- CPU_WriteMem(4 bytes @ 0xE0002018) -- CPU_WriteMem(4 bytes @ 0xE000201C) (0008ms, 1049ms total)
T1D1C 001:938 JLINK_IsHalted()  returns FALSE (0001ms, 1057ms total)
T1D1C 001:989 JLINK_IsHalted() -- CPU_ReadMem(2 bytes @ 0x20000000)  returns TRUE (0007ms, 1057ms total)
T1D1C 001:996 JLINK_ReadReg(R15)  returns 0x20000000 (0000ms, 1057ms total)
T1D1C 001:996 JLINK_ClrBPEx(BPHandle = 0x00000011)  returns 0x00 (0000ms, 1057ms total)
T1D1C 001:996 JLINK_ReadReg(R0)  returns 0x00000000 (0000ms, 1057ms total)
T1D1C 001:997 JLINK_WriteMem(0x20000164, 0x0400 Bytes, ...) -- Data:  28 25 73 29 20 61 73 73 65 72 74 20 66 61 69 6C ... -- CPU_WriteMem(1024 bytes @ 0x20000164)  returns 0x400 (0011ms, 1057ms total)
T1D1C 002:008 JLINK_WriteReg(R0, 0x08003400)  returns 0x00 (0001ms, 1068ms total)
T1D1C 002:009 JLINK_WriteReg(R1, 0x00000400)  returns 0x00 (0000ms, 1069ms total)
